Circuit: * C:\Users\Ric\Desktop\UNI\Electronics And Telecommuncations Bach\Year 3\4. Research Project (Thur)\Simulation\Draft1.asc

Direct Newton iteration for .op point succeeded.
Semiconductor Device Operating Points:
                        --- Diodes ---
Name:      d1
Model:      d
Id:        NaN
Vd:      -5.99e+0
Req:       NaN
CAP:      0.00e+0

                        --- VDMOSFET Transistors ---
Name:          m1
Model:      fdc5614p
Id:            NaN
Vgs:          5.99e+0
Vds:         -1.11e-2
Vth:         -1.85e+0
Gm:           0.00e+0
Gds:          0.00e+0
Cgs:           NaN
Cgd:           NaN
Cbody:         NaN



Date: Tue Apr 21 02:41:40 2020
Total elapsed time: 0.177 seconds.

tnom = 27
temp = 27
method = trap
totiter = 47
traniter = 0
tranpoints = 0
accept = 0
rejected = 0
matrix size = 8
fillins = 0
solver = Normal
Matrix Compiler1: 416 bytes object code size
Matrix Compiler2:      49 opcodes
