Circuit: * C:\Users\Ric\Desktop\UNI\Electronics And Telecommuncations Bach\Year 3\4. Research Project (Thur)\Simulation\Reverse_Voltage_Protection.asc

Instance "m:u1:1": Width narrower than recommended for a level 3 MOSFET.
Direct Newton iteration for .op point succeeded.
Semiconductor Device Operating Points:
                        --- Diodes ---
Name:    d:u1:gd    d:u1:body    d:u1:ds       d1
Model:   u1:dgd     u1:dbody     u1:dds         d
Id:        NaN         NaN         NaN         NaN
Vd:      -6.00e+0     3.27e-4     3.27e-4    -6.00e+0
Req:       NaN        5.13e+6      NaN         NaN
CAP:       NaN         NaN        5.08e-9     0.00e+0

                        --- MOSFET Transistors ---
Name:        m:u1:3      m:u1:2      m:u1:1
Model:      u1:inter    u1:inter     u1:dmos
Id:            NaN        6.00e-7      NaN
Vgs:          1.20e+1    -1.20e+1     6.00e+0
Vds:         -6.00e+0     5.00e-9     3.27e-4
Vbs:          0.00e+0     0.00e+0     0.00e+0
Vth:         -0.00e+0    -0.00e+0    -3.74e+0
Vdsat:       -0.00e+0    -1.20e+1    -0.00e+0
Gm:           0.00e+0     5.00e-8     0.00e+0
Gds:          0.00e+0     1.20e+2     0.00e+0
Gmb:          0.00e+0     0.00e+0     0.00e+0
Cbd:          0.00e+0     0.00e+0     0.00e+0
Cbs:          0.00e+0     0.00e+0     0.00e+0
Cgsov:        0.00e+0     0.00e+0     0.00e+0
Cgdov:        0.00e+0     0.00e+0     0.00e+0
Cgbov:        0.00e+0     0.00e+0     0.00e+0
Cgs:          0.00e+0     0.00e+0     0.00e+0
Cgd:          0.00e+0     0.00e+0     0.00e+0
Cgb:          0.00e+0     0.00e+0      NaN



Date: Tue Apr 21 13:36:33 2020
Total elapsed time: 0.097 seconds.

tnom = 27
temp = 27
method = trap
totiter = 18
traniter = 0
tranpoints = 0
accept = 0
rejected = 0
matrix size = 16
fillins = 3
solver = Normal
Matrix Compiler1: 1.59 KB object code size
Matrix Compiler2: 1.43 KB object code size
